
T2694 000:303 SEGGER J-Link V4.94j Log File (0001ms, 0272ms total)
T2694 000:303 DLL Compiled: Dec 10 2014 13:52:41 (0001ms, 0272ms total)
T2694 000:303 Logging started @ 2017-11-07 00:54 (0001ms, 0272ms total)
T2694 000:304 JLINK_SetWarnOutHandler(...) (0000ms, 0272ms total)
T2694 000:304 JLINK_OpenEx(...)
Firmware: J-Link ARM-OB STM32 compiled Aug 22 2012 19:52:04
Hardware: V7.00
S/N: 20090928
Feature(s): RDI,FlashDL,FlashBP,JFlash,GDBFull  returns O.K. (0268ms, 0540ms total)
T2694 000:572 JLINK_SetErrorOutHandler(...) (0000ms, 0540ms total)
T2694 000:572 JLINK_ExecCommand("ProjectFile = "D:\201711WuLianWangStudy\projects\ToTestWorkOk\PROJECT\JLinkSettings.ini"", ...)  returns 0x00 (0000ms, 0540ms total)
T2694 000:580 JLINK_ExecCommand("Device = STM32F407VE", ...)Device "STM32F407VE" selected.  returns 0x00 (0004ms, 0544ms total)
T2694 000:584 JLINK_ExecCommand("DisableConnectionTimeout", ...)  returns 0x01 (0000ms, 0544ms total)
T2694 000:584 JLINK_GetHardwareVersion()  returns 0x11170 (0000ms, 0544ms total)
T2694 000:584 JLINK_GetDLLVersion()  returns 49410 (0001ms, 0545ms total)
T2694 000:585 JLINK_GetFirmwareString(...) (0000ms, 0545ms total)
T2694 000:601 JLINK_GetDLLVersion()  returns 49410 (0000ms, 0545ms total)
T2694 000:601 JLINK_GetCompileDateTime() (0000ms, 0545ms total)
T2694 000:605 JLINK_GetFirmwareString(...) (0000ms, 0545ms total)
T2694 000:608 JLINK_GetHardwareVersion()  returns 0x11170 (0000ms, 0545ms total)
T2694 000:623 JLINK_TIF_Select(JLINKARM_TIF_SWD)  returns 0x00 (0002ms, 0547ms total)
T2694 000:625 JLINK_SetMaxSpeed() >0x108 TIF>Found SWD-DP with ID 0x2BA01477 >0x0D TIF> >0x28 TIF> >0x0D TIF> >0x28 TIF> >0x0D TIF> >0x21 TIF> >0x0D TIF> >0x28 TIF> >0x0D TIF> >0x28 TIF> >0x0D TIF> >0x28 TIF> >0x0D TIF> >0x21 TIF> >0x0D TIF> >0x21 TIF> >0x0D TIF> >0x28 TIF> >0x0D TIF> >0x21 TIF> >0x0D TIF> >0x21 TIF> >0x0D TIF> >0x28 TIF> >0x0D TIF> >0x21 TIF> >0x0D TIF> >0x21 TIF> >0x108 TIF>Found SWD-DP with ID 0x2BA01477 >0x0D TIF> >0x21 TIF> >0x0D TIF> >0x28 TIF> >0x0D TIF> >0x28 TIF> >0x0D TIF>
 >0x21 TIF> >0x0D TIF> >0x28 TIF> >0x0D TIF> >0x21 TIF> >0x0D TIF> >0x21 TIF> >0x0D TIF> >0x21 TIF> >0x0D TIF> >0x21 TIF> >0x0D TIF> >0x28 TIF> >0x0D TIF> >0x28 TIF> >0x0D TIF> >0x21 TIF> >0x0D TIF> >0x28 TIF> >0x0D TIF> >0x28 TIF> >0x0D TIF> >0x28 TIF> >0x0D TIF> >0x21 TIF> >0x0D TIF> >0x21 TIF> >0x0D TIF> >0x28 TIF> >0x0D TIF> >0x21 TIF> >0x0D TIF> >0x21 TIF>Found Cortex-M4 r0p1, Little endian. -- CPU_WriteMem(4 bytes @ 0xE0002000) -- CPU_ReadMem(4 bytes @ 0xE000EDF0)
 -- CPU_ReadMem(4 bytes @ 0xE0002000)FPUnit: 6 code (BP) slots and 2 literal slots -- CPU_ReadMem(4 bytes @ 0xE000EDFC) -- CPU_ReadMem(4 bytes @ 0xE0001000) -- CPU_WriteMem(4 bytes @ 0xE0001000) -- CPU_ReadMem(4 bytes @ 0xE000ED88) -- CPU_WriteMem(4 bytes @ 0xE000ED88) -- CPU_ReadMem(4 bytes @ 0xE000ED88) -- CPU_WriteMem(4 bytes @ 0xE000ED88) -- CPU_ReadMem(4 bytes @ 0xE00FF010)TPIU fitted. -- CPU_ReadMem(4 bytes @ 0xE00FF014)ETM fitted. -- CPU_ReadMem(4 bytes @ 0xE00FF018) (0139ms, 0686ms total)
T2694 000:764 JLINK_GetSpeed()  returns 0x7D0 (0000ms, 0686ms total)
T2694 000:764 JLINK_GetId() >0x0D TIF> >0x21 TIF>  returns 0x2BA01477 (0002ms, 0688ms total)
T2694 000:766 JLINK_CORE_GetFound()  returns 0xE0000FF (0000ms, 0688ms total)
T2694 000:769 JLINK_ReadMem (0xE00FFFF0, 0x0010 Bytes, ...) -- CPU is running -- CPU_ReadMem(16 bytes @ 0xE00FFFF0) - Data: 0D 00 00 00 10 00 00 00 05 00 00 00 B1 00 00 00  returns 0x00 (0002ms, 0690ms total)
T2694 000:771 JLINK_ReadMem (0xE00FFFD0, 0x0020 Bytes, ...) -- CPU is running -- CPU_ReadMem(32 bytes @ 0xE00FFFD0) - Data: 00 00 00 00 00 00 00 00 00 00 00 00 00 00 00 00 ...  returns 0x00 (0001ms, 0691ms total)
T2694 000:772 JLINK_ReadMem (0xE00FF000, 0x0018 Bytes, ...) -- CPU is running -- CPU_ReadMem(24 bytes @ 0xE00FF000) - Data: 03 F0 F0 FF 03 20 F0 FF 03 30 F0 FF 03 10 F0 FF ...  returns 0x00 (0001ms, 0692ms total)
T2694 000:773 JLINK_CORE_GetFound()  returns 0xE0000FF (0000ms, 0692ms total)
T2694 000:773 JLINK_ReadMemU32(0xE000EF40, 0x0001 Items, ...) -- CPU is running -- CPU_ReadMem(4 bytes @ 0xE000EF40) - Data: 21 00 11 10  returns 0x01 (0001ms, 0693ms total)
T2694 000:774 JLINK_ReadMemU32(0xE000EF44, 0x0001 Items, ...) -- CPU is running -- CPU_ReadMem(4 bytes @ 0xE000EF44) - Data: 11 00 00 11  returns 0x01 (0001ms, 0694ms total)
T2694 000:775 JLINK_ReadMemU32(0xE000ED00, 0x0001 Items, ...) -- CPU is running -- CPU_ReadMem(4 bytes @ 0xE000ED00) - Data: 41 C2 0F 41  returns 0x01 (0002ms, 0696ms total)
T2694 000:777 JLINK_SetResetType(JLINKARM_RESET_TYPE_NORMAL)  returns JLINKARM_RESET_TYPE_NORMAL (0000ms, 0696ms total)
T2694 000:777 JLINK_Reset() -- CPU is running -- CPU_WriteMem(4 bytes @ 0xE000EDF0) -- CPU is running -- CPU_WriteMem(4 bytes @ 0xE000EDFC) >0x35 TIF> -- CPU is running -- CPU_WriteMem(4 bytes @ 0xE000ED0C) -- CPU is running -- CPU_ReadMem(4 bytes @ 0xE000EDF0) -- CPU is running -- CPU_ReadMem(4 bytes @ 0xE000EDF0) -- CPU is running -- CPU_WriteMem(4 bytes @ 0xE000EDF0) -- CPU is running -- CPU_WriteMem(4 bytes @ 0xE000EDFC) -- CPU is running -- CPU_ReadMem(4 bytes @ 0xE000EDF0)
 -- CPU_WriteMem(4 bytes @ 0xE0002000) -- CPU_ReadMem(4 bytes @ 0xE000EDFC) -- CPU_ReadMem(4 bytes @ 0xE0001000) (0025ms, 0721ms total)
T2694 000:802 JLINK_Halt()  returns 0x00 (0000ms, 0721ms total)
T2694 000:802 JLINK_IsHalted()  returns TRUE (0000ms, 0721ms total)
T2694 000:802 JLINK_ReadMemU32(0xE000EDF0, 0x0001 Items, ...) -- CPU_ReadMem(4 bytes @ 0xE000EDF0) - Data: 03 00 03 00  returns 0x01 (0001ms, 0722ms total)
T2694 000:803 JLINK_WriteU32(0xE000EDF0, 0xA05F0003) -- CPU_WriteMem(4 bytes @ 0xE000EDF0)  returns 0x00 (0001ms, 0723ms total)
T2694 000:804 JLINK_WriteU32(0xE000EDFC, 0x01000000) -- CPU_WriteMem(4 bytes @ 0xE000EDFC)  returns 0x00 (0001ms, 0724ms total)
T2694 000:821 JLINK_GetHWStatus(...)  returns 0x00 (0001ms, 0725ms total)
T2694 000:832 JLINK_GetNumBPUnits(Type = 0xFFFFFF00)  returns 0x06 (0000ms, 0725ms total)
T2694 000:832 JLINK_GetNumBPUnits(Type = 0xF0)  returns 0x2000 (0000ms, 0725ms total)
T2694 000:832 JLINK_GetNumWPUnits()  returns 0x04 (0000ms, 0725ms total)
T2694 000:843 JLINK_GetSpeed()  returns 0x7D0 (0000ms, 0725ms total)
T2694 000:850 JLINK_ReadMemU32(0xE000E004, 0x0001 Items, ...) -- CPU_ReadMem(4 bytes @ 0xE000E004) - Data: 02 00 00 00  returns 0x01 (0001ms, 0726ms total)
T2694 000:851 JLINK_ReadMemU32(0xE000E004, 0x0001 Items, ...) -- CPU_ReadMem(4 bytes @ 0xE000E004) - Data: 02 00 00 00  returns 0x01 (0001ms, 0727ms total)
T2694 000:852 JLINK_WriteMem(0xE0001000, 0x001C Bytes, ...) - Data: 01 00 00 00 00 00 00 00 00 00 00 00 00 00 00 00 ... -- CPU_WriteMem(28 bytes @ 0xE0001000)  returns 0x1C (0002ms, 0729ms total)
T2694 000:854 JLINK_ReadMem (0xE0001000, 0x001C Bytes, ...) -- CPU_ReadMem(28 bytes @ 0xE0001000) - Data: 01 00 00 40 00 00 00 00 00 00 00 00 00 00 00 00 ...  returns 0x00 (0001ms, 0730ms total)
T2694 000:855 JLINK_Halt()  returns 0x00 (0000ms, 0730ms total)
T2694 000:855 JLINK_IsHalted()  returns TRUE (0000ms, 0730ms total)
T2694 000:860 JLINK_WriteMem(0x20000000, 0x0188 Bytes, ...) - Data: 00 BE 0A E0 0D 78 2D 06 68 40 08 24 40 00 00 D3 ... -- CPU_WriteMem(392 bytes @ 0x20000000)  returns 0x188 (0006ms, 0736ms total)
T2694 000:866 JLINK_WriteReg(R0, 0x08000000)  returns 0x00 (0000ms, 0736ms total)
T2694 000:866 JLINK_WriteReg(R1, 0x00B71B00)  returns 0x00 (0000ms, 0736ms total)
T2694 000:866 JLINK_WriteReg(R2, 0x00000001)  returns 0x00 (0000ms, 0736ms total)
T2694 000:866 JLINK_WriteReg(R3, 0x00000000)  returns 0x00 (0000ms, 0736ms total)
T2694 000:866 JLINK_WriteReg(R4, 0x00000000)  returns 0x00 (0000ms, 0736ms total)
T2694 000:866 JLINK_WriteReg(R5, 0x00000000)  returns 0x00 (0000ms, 0736ms total)
T2694 000:866 JLINK_WriteReg(R6, 0x00000000)  returns 0x00 (0000ms, 0736ms total)
T2694 000:866 JLINK_WriteReg(R7, 0x00000000)  returns 0x00 (0000ms, 0736ms total)
T2694 000:866 JLINK_WriteReg(R8, 0x00000000)  returns 0x00 (0000ms, 0736ms total)
T2694 000:866 JLINK_WriteReg(R9, 0x20000184)  returns 0x00 (0000ms, 0736ms total)
T2694 000:867 JLINK_WriteReg(R10, 0x00000000)  returns 0x00 (0000ms, 0737ms total)
T2694 000:867 JLINK_WriteReg(R11, 0x00000000)  returns 0x00 (0000ms, 0737ms total)
T2694 000:867 JLINK_WriteReg(R12, 0x00000000)  returns 0x00 (0000ms, 0737ms total)
T2694 000:867 JLINK_WriteReg(R13 (SP), 0x20001000)  returns 0x00 (0000ms, 0737ms total)
T2694 000:867 JLINK_WriteReg(R14, 0x20000001)  returns 0x00 (0000ms, 0737ms total)
T2694 000:867 JLINK_WriteReg(R15 (PC), 0x2000005E)  returns 0x00 (0000ms, 0737ms total)
T2694 000:867 JLINK_WriteReg(XPSR, 0x01000000)  returns 0x00 (0000ms, 0737ms total)
T2694 000:867 JLINK_WriteReg(MSP, 0x20001000)  returns 0x00 (0000ms, 0737ms total)
T2694 000:867 JLINK_WriteReg(PSP, 0x20001000)  returns 0x00 (0000ms, 0737ms total)
T2694 000:867 JLINK_WriteReg(CFBP, 0x00000000)  returns 0x00 (0000ms, 0737ms total)
T2694 000:867 JLINK_SetBPEx(Addr = 0x20000000, Type = 0xFFFFFFF2) -- CPU_ReadMem(2 bytes @ 0x20000000)  returns 0x00000001 (0001ms, 0738ms total)
T2694 000:868 JLINK_Go() -- CPU_WriteMem(2 bytes @ 0x20000000) -- CPU_WriteMem(4 bytes @ 0xE0002008) -- CPU_WriteMem(4 bytes @ 0xE000200C) -- CPU_WriteMem(4 bytes @ 0xE0002010) -- CPU_WriteMem(4 bytes @ 0xE0002014) -- CPU_WriteMem(4 bytes @ 0xE0002018) -- CPU_WriteMem(4 bytes @ 0xE000201C) -- CPU_WriteMem(4 bytes @ 0xE0001004) (0011ms, 0749ms total)
T2694 000:880 JLINK_IsHalted() -- CPU_ReadMem(2 bytes @ 0x20000000)  returns TRUE (0005ms, 0755ms total)
T2694 000:885 JLINK_ReadReg(R15 (PC))  returns 0x20000000 (0000ms, 0750ms total)
T2694 000:885 JLINK_ClrBPEx(BPHandle = 0x00000001)  returns 0x00 (0000ms, 0750ms total)
T2694 000:885 JLINK_ReadReg(R0)  returns 0x00000000 (0000ms, 0750ms total)
T2694 000:885 JLINK_WriteReg(R0, 0x08000000)  returns 0x00 (0000ms, 0750ms total)
T2694 000:885 JLINK_WriteReg(R1, 0x00004000)  returns 0x00 (0001ms, 0751ms total)
T2694 000:886 JLINK_WriteReg(R2, 0x000000FF)  returns 0x00 (0000ms, 0751ms total)
T2694 000:886 JLINK_WriteReg(R3, 0x00000000)  returns 0x00 (0000ms, 0751ms total)
T2694 000:886 JLINK_WriteReg(R4, 0x00000000)  returns 0x00 (0000ms, 0751ms total)
T2694 000:886 JLINK_WriteReg(R5, 0x00000000)  returns 0x00 (0000ms, 0751ms total)
T2694 000:886 JLINK_WriteReg(R6, 0x00000000)  returns 0x00 (0000ms, 0751ms total)
T2694 000:886 JLINK_WriteReg(R7, 0x00000000)  returns 0x00 (0000ms, 0751ms total)
T2694 000:886 JLINK_WriteReg(R8, 0x00000000)  returns 0x00 (0000ms, 0751ms total)
T2694 000:886 JLINK_WriteReg(R9, 0x20000184)  returns 0x00 (0000ms, 0751ms total)
T2694 000:886 JLINK_WriteReg(R10, 0x00000000)  returns 0x00 (0000ms, 0751ms total)
T2694 000:886 JLINK_WriteReg(R11, 0x00000000)  returns 0x00 (0000ms, 0751ms total)
T2694 000:886 JLINK_WriteReg(R12, 0x00000000)  returns 0x00 (0000ms, 0751ms total)
T2694 000:886 JLINK_WriteReg(R13 (SP), 0x20001000)  returns 0x00 (0000ms, 0751ms total)
T2694 000:886 JLINK_WriteReg(R14, 0x20000001)  returns 0x00 (0000ms, 0751ms total)
T2694 000:886 JLINK_WriteReg(R15 (PC), 0x20000020)  returns 0x00 (0000ms, 0751ms total)
T2694 000:886 JLINK_WriteReg(XPSR, 0x01000000)  returns 0x00 (0000ms, 0751ms total)
T2694 000:886 JLINK_WriteReg(MSP, 0x20001000)  returns 0x00 (0000ms, 0751ms total)
T2694 000:886 JLINK_WriteReg(PSP, 0x20001000)  returns 0x00 (0000ms, 0751ms total)
T2694 000:886 JLINK_WriteReg(CFBP, 0x00000000)  returns 0x00 (0000ms, 0751ms total)
T2694 000:886 JLINK_SetBPEx(Addr = 0x20000000, Type = 0xFFFFFFF2)  returns 0x00000002 (0000ms, 0751ms total)
T2694 000:886 JLINK_Go() (0003ms, 0754ms total)
T2694 000:889 JLINK_IsHalted() -- CPU_ReadMem(2 bytes @ 0x20000000)  returns TRUE (0006ms, 0760ms total)
T2694 000:895 JLINK_ReadReg(R15 (PC))  returns 0x20000000 (0000ms, 0754ms total)
T2694 000:895 JLINK_ClrBPEx(BPHandle = 0x00000002)  returns 0x00 (0000ms, 0754ms total)
T2694 000:895 JLINK_ReadReg(R0)  returns 0x00000001 (0000ms, 0754ms total)
T2694 000:895 JLINK_WriteReg(R0, 0x08000000)  returns 0x00 (0000ms, 0754ms total)
T2694 000:895 JLINK_WriteReg(R1, 0x00004000)  returns 0x00 (0000ms, 0754ms total)
T2694 000:895 JLINK_WriteReg(R2, 0x000000FF)  returns 0x00 (0000ms, 0754ms total)
T2694 000:895 JLINK_WriteReg(R3, 0x00000000)  returns 0x00 (0000ms, 0754ms total)
T2694 000:895 JLINK_WriteReg(R4, 0x00000000)  returns 0x00 (0000ms, 0754ms total)
T2694 000:895 JLINK_WriteReg(R5, 0x00000000)  returns 0x00 (0000ms, 0754ms total)
T2694 000:895 JLINK_WriteReg(R6, 0x00000000)  returns 0x00 (0000ms, 0754ms total)
T2694 000:895 JLINK_WriteReg(R7, 0x00000000)  returns 0x00 (0000ms, 0754ms total)
T2694 000:895 JLINK_WriteReg(R8, 0x00000000)  returns 0x00 (0000ms, 0754ms total)
T2694 000:895 JLINK_WriteReg(R9, 0x20000184)  returns 0x00 (0000ms, 0754ms total)
T2694 000:895 JLINK_WriteReg(R10, 0x00000000)  returns 0x00 (0000ms, 0754ms total)
T2694 000:895 JLINK_WriteReg(R11, 0x00000000)  returns 0x00 (0000ms, 0754ms total)
T2694 000:895 JLINK_WriteReg(R12, 0x00000000)  returns 0x00 (0000ms, 0754ms total)
T2694 000:895 JLINK_WriteReg(R13 (SP), 0x20001000)  returns 0x00 (0000ms, 0754ms total)
T2694 000:895 JLINK_WriteReg(R14, 0x20000001)  returns 0x00 (0000ms, 0754ms total)
T2694 000:895 JLINK_WriteReg(R15 (PC), 0x200000C6)  returns 0x00 (0000ms, 0754ms total)
T2694 000:895 JLINK_WriteReg(XPSR, 0x01000000)  returns 0x00 (0001ms, 0755ms total)
T2694 000:896 JLINK_WriteReg(MSP, 0x20001000)  returns 0x00 (0000ms, 0755ms total)
T2694 000:896 JLINK_WriteReg(PSP, 0x20001000)  returns 0x00 (0000ms, 0755ms total)
T2694 000:896 JLINK_WriteReg(CFBP, 0x00000000)  returns 0x00 (0000ms, 0755ms total)
T2694 000:896 JLINK_SetBPEx(Addr = 0x20000000, Type = 0xFFFFFFF2)  returns 0x00000003 (0000ms, 0755ms total)
T2694 000:896 JLINK_Go() (0002ms, 0757ms total)
T2694 000:899 JLINK_IsHalted()  returns FALSE (0001ms, 0759ms total)
T2694 000:960 JLINK_IsHalted()  returns FALSE (0001ms, 0759ms total)
T2694 000:971 JLINK_IsHalted()  returns FALSE (0001ms, 0759ms total)
T2694 000:974 JLINK_IsHalted()  returns FALSE (0001ms, 0759ms total)
T2694 000:976 JLINK_IsHalted()  returns FALSE (0001ms, 0759ms total)
T2694 000:978 JLINK_IsHalted()  returns FALSE (0001ms, 0759ms total)
T2694 000:981 JLINK_IsHalted()  returns FALSE (0001ms, 0759ms total)
T2694 000:983 JLINK_IsHalted()  returns FALSE (0001ms, 0759ms total)
T2694 000:985 JLINK_IsHalted()  returns FALSE (0001ms, 0759ms total)
T2694 000:987 JLINK_IsHalted()  returns FALSE (0001ms, 0759ms total)
T2694 000:992 JLINK_IsHalted()  returns FALSE (0001ms, 0759ms total)
T2694 000:994 JLINK_IsHalted()  returns FALSE (0001ms, 0759ms total)
T2694 000:998 JLINK_IsHalted()  returns FALSE (0001ms, 0759ms total)
T2694 001:000 JLINK_IsHalted()  returns FALSE (0001ms, 0759ms total)
T2694 001:002 JLINK_IsHalted()  returns FALSE (0002ms, 0760ms total)
T2694 001:005 JLINK_IsHalted()  returns FALSE (0001ms, 0759ms total)
T2694 001:008 JLINK_IsHalted()  returns FALSE (0001ms, 0759ms total)
T2694 001:011 JLINK_IsHalted()  returns FALSE (0001ms, 0759ms total)
T2694 001:013 JLINK_IsHalted()  returns FALSE (0001ms, 0759ms total)
T2694 001:018 JLINK_IsHalted()  returns FALSE (0001ms, 0759ms total)
T2694 001:020 JLINK_IsHalted()  returns FALSE (0001ms, 0759ms total)
T2694 001:029 JLINK_IsHalted()  returns FALSE (0001ms, 0759ms total)
T2694 001:031 JLINK_IsHalted()  returns FALSE (0001ms, 0759ms total)
T2694 001:034 JLINK_IsHalted()  returns FALSE (0001ms, 0759ms total)
T2694 001:038 JLINK_IsHalted()  returns FALSE (0001ms, 0759ms total)
T2694 001:040 JLINK_IsHalted()  returns FALSE (0001ms, 0759ms total)
T2694 001:042 JLINK_IsHalted()  returns FALSE (0000ms, 0758ms total)
T2694 001:043 JLINK_IsHalted()  returns FALSE (0000ms, 0758ms total)
T2694 001:048 JLINK_IsHalted()  returns FALSE (0001ms, 0759ms total)
T2694 001:050 JLINK_IsHalted()  returns FALSE (0001ms, 0759ms total)
T2694 001:052 JLINK_IsHalted()  returns FALSE (0001ms, 0759ms total)
T2694 001:055 JLINK_IsHalted()  returns FALSE (0001ms, 0759ms total)
T2694 001:059 JLINK_IsHalted()  returns FALSE (0000ms, 0758ms total)
T2694 001:061 JLINK_IsHalted()  returns FALSE (0001ms, 0759ms total)
T2694 001:064 JLINK_IsHalted()  returns FALSE (0001ms, 0759ms total)
T2694 001:066 JLINK_IsHalted()  returns FALSE (0001ms, 0759ms total)
T2694 001:069 JLINK_IsHalted()  returns FALSE (0001ms, 0759ms total)
T2694 001:071 JLINK_IsHalted()  returns FALSE (0001ms, 0759ms total)
T2694 001:073 JLINK_IsHalted()  returns FALSE (0001ms, 0759ms total)
T2694 001:077 JLINK_IsHalted()  returns FALSE (0001ms, 0759ms total)
T2694 001:081 JLINK_IsHalted()  returns FALSE (0001ms, 0759ms total)
T2694 001:083 JLINK_IsHalted()  returns FALSE (0001ms, 0759ms total)
T2694 001:085 JLINK_IsHalted()  returns FALSE (0001ms, 0759ms total)
T2694 001:087 JLINK_IsHalted()  returns FALSE (0001ms, 0759ms total)
T2694 001:089 JLINK_IsHalted()  returns FALSE (0001ms, 0759ms total)
T2694 001:092 JLINK_IsHalted()  returns FALSE (0001ms, 0759ms total)
T2694 001:096 JLINK_IsHalted()  returns FALSE (0001ms, 0759ms total)
T2694 001:098 JLINK_IsHalted()  returns FALSE (0001ms, 0759ms total)
T2694 001:100 JLINK_IsHalted()  returns FALSE (0001ms, 0759ms total)
T2694 001:102 JLINK_IsHalted()  returns FALSE (0001ms, 0759ms total)
T2694 001:107 JLINK_IsHalted()  returns FALSE (0001ms, 0759ms total)
T2694 001:110 JLINK_IsHalted()  returns FALSE (0001ms, 0759ms total)
T2694 001:112 JLINK_IsHalted()  returns FALSE (0001ms, 0759ms total)
T2694 001:115 JLINK_IsHalted()  returns FALSE (0001ms, 0759ms total)
T2694 001:117 JLINK_IsHalted()  returns FALSE (0001ms, 0759ms total)
T2694 001:119 JLINK_IsHalted()  returns FALSE (0001ms, 0759ms total)
T2694 001:125 JLINK_IsHalted()  returns FALSE (0001ms, 0759ms total)
T2694 001:127 JLINK_IsHalted()  returns FALSE (0001ms, 0759ms total)
T2694 001:130 JLINK_IsHalted()  returns FALSE (0001ms, 0759ms total)
T2694 001:132 JLINK_IsHalted()  returns FALSE (0001ms, 0759ms total)
T2694 001:140 JLINK_IsHalted()  returns FALSE (0001ms, 0759ms total)
T2694 001:143 JLINK_IsHalted()  returns FALSE (0001ms, 0759ms total)
T2694 001:145 JLINK_IsHalted()  returns FALSE (0001ms, 0759ms total)
T2694 001:147 JLINK_IsHalted()  returns FALSE (0001ms, 0759ms total)
T2694 001:152 JLINK_IsHalted()  returns FALSE (0001ms, 0759ms total)
T2694 001:154 JLINK_IsHalted()  returns FALSE (0000ms, 0758ms total)
T2694 001:156 JLINK_IsHalted()  returns FALSE (0001ms, 0759ms total)
T2694 001:158 JLINK_IsHalted()  returns FALSE (0001ms, 0759ms total)
T2694 001:160 JLINK_IsHalted()  returns FALSE (0001ms, 0759ms total)
T2694 001:162 JLINK_IsHalted()  returns FALSE (0000ms, 0758ms total)
T2694 001:163 JLINK_IsHalted()  returns FALSE (0000ms, 0758ms total)
T2694 001:164 JLINK_IsHalted()  returns FALSE (0000ms, 0758ms total)
T2694 001:167 JLINK_IsHalted()  returns FALSE (0001ms, 0759ms total)
T2694 001:169 JLINK_IsHalted()  returns FALSE (0001ms, 0759ms total)
T2694 001:175 JLINK_IsHalted()  returns FALSE (0000ms, 0758ms total)
T2694 001:177 JLINK_IsHalted()  returns FALSE (0001ms, 0759ms total)
T2694 001:179 JLINK_IsHalted()  returns FALSE (0001ms, 0759ms total)
T2694 001:181 JLINK_IsHalted()  returns FALSE (0001ms, 0759ms total)
T2694 001:185 JLINK_IsHalted()  returns FALSE (0000ms, 0758ms total)
T2694 001:189 JLINK_IsHalted()  returns FALSE (0001ms, 0759ms total)
T2694 001:191 JLINK_IsHalted()  returns FALSE (0001ms, 0759ms total)
T2694 001:194 JLINK_IsHalted()  returns FALSE (0001ms, 0759ms total)
T2694 001:196 JLINK_IsHalted()  returns FALSE (0001ms, 0759ms total)
T2694 001:199 JLINK_IsHalted()  returns FALSE (0001ms, 0759ms total)
T2694 001:201 JLINK_IsHalted()  returns FALSE (0001ms, 0759ms total)
T2694 001:206 JLINK_IsHalted()  returns FALSE (0001ms, 0759ms total)
T2694 001:208 JLINK_IsHalted()  returns FALSE (0001ms, 0759ms total)
T2694 001:210 JLINK_IsHalted()  returns FALSE (0001ms, 0759ms total)
T2694 001:217 JLINK_IsHalted()  returns FALSE (0001ms, 0759ms total)
T2694 001:220 JLINK_IsHalted()  returns FALSE (0001ms, 0759ms total)
T2694 001:222 JLINK_IsHalted()  returns FALSE (0001ms, 0759ms total)
T2694 001:224 JLINK_IsHalted()  returns FALSE (0001ms, 0759ms total)
T2694 001:226 JLINK_IsHalted()  returns FALSE (0001ms, 0759ms total)
T2694 001:228 JLINK_IsHalted()  returns FALSE (0001ms, 0759ms total)
T2694 001:231 JLINK_IsHalted()  returns FALSE (0001ms, 0759ms total)
T2694 001:233 JLINK_IsHalted()  returns FALSE (0001ms, 0759ms total)
T2694 001:235 JLINK_IsHalted()  returns FALSE (0001ms, 0759ms total)
T2694 001:239 JLINK_IsHalted()  returns FALSE (0001ms, 0759ms total)
T2694 001:243 JLINK_IsHalted() -- CPU_ReadMem(2 bytes @ 0x20000000)  returns TRUE (0005ms, 0763ms total)
T2694 001:248 JLINK_ReadReg(R15 (PC))  returns 0x20000000 (0000ms, 0758ms total)
T2694 001:248 JLINK_ClrBPEx(BPHandle = 0x00000003)  returns 0x00 (0000ms, 0758ms total)
T2694 001:248 JLINK_ReadReg(R0)  returns 0x00000000 (0000ms, 0758ms total)
T2694 001:249 JLINK_WriteReg(R0, 0x08004000)  returns 0x00 (0000ms, 0758ms total)
T2694 001:249 JLINK_WriteReg(R1, 0x00004000)  returns 0x00 (0000ms, 0758ms total)
T2694 001:249 JLINK_WriteReg(R2, 0x000000FF)  returns 0x00 (0000ms, 0758ms total)
T2694 001:249 JLINK_WriteReg(R3, 0x00000000)  returns 0x00 (0000ms, 0758ms total)
T2694 001:249 JLINK_WriteReg(R4, 0x00000000)  returns 0x00 (0000ms, 0758ms total)
T2694 001:249 JLINK_WriteReg(R5, 0x00000000)  returns 0x00 (0000ms, 0758ms total)
T2694 001:249 JLINK_WriteReg(R6, 0x00000000)  returns 0x00 (0000ms, 0758ms total)
T2694 001:249 JLINK_WriteReg(R7, 0x00000000)  returns 0x00 (0000ms, 0758ms total)
T2694 001:249 JLINK_WriteReg(R8, 0x00000000)  returns 0x00 (0000ms, 0758ms total)
T2694 001:249 JLINK_WriteReg(R9, 0x20000184)  returns 0x00 (0000ms, 0758ms total)
T2694 001:249 JLINK_WriteReg(R10, 0x00000000)  returns 0x00 (0000ms, 0758ms total)
T2694 001:249 JLINK_WriteReg(R11, 0x00000000)  returns 0x00 (0000ms, 0758ms total)
T2694 001:249 JLINK_WriteReg(R12, 0x00000000)  returns 0x00 (0000ms, 0758ms total)
T2694 001:249 JLINK_WriteReg(R13 (SP), 0x20001000)  returns 0x00 (0000ms, 0758ms total)
T2694 001:249 JLINK_WriteReg(R14, 0x20000001)  returns 0x00 (0001ms, 0759ms total)
T2694 001:250 JLINK_WriteReg(R15 (PC), 0x20000020)  returns 0x00 (0000ms, 0759ms total)
T2694 001:250 JLINK_WriteReg(XPSR, 0x01000000)  returns 0x00 (0000ms, 0759ms total)
T2694 001:250 JLINK_WriteReg(MSP, 0x20001000)  returns 0x00 (0000ms, 0759ms total)
T2694 001:250 JLINK_WriteReg(PSP, 0x20001000)  returns 0x00 (0000ms, 0759ms total)
T2694 001:250 JLINK_WriteReg(CFBP, 0x00000000)  returns 0x00 (0000ms, 0759ms total)
T2694 001:250 JLINK_SetBPEx(Addr = 0x20000000, Type = 0xFFFFFFF2)  returns 0x00000004 (0000ms, 0759ms total)
T2694 001:250 JLINK_Go() (0003ms, 0762ms total)
T2694 001:253 JLINK_IsHalted()  returns FALSE (0001ms, 0763ms total)
T2694 001:260 JLINK_IsHalted()  returns FALSE (0001ms, 0763ms total)
T2694 001:262 JLINK_IsHalted()  returns FALSE (0001ms, 0763ms total)
T2694 001:264 JLINK_IsHalted()  returns FALSE (0001ms, 0763ms total)
T2694 001:266 JLINK_IsHalted()  returns FALSE (0001ms, 0763ms total)
T2694 001:268 JLINK_IsHalted() -- CPU_ReadMem(2 bytes @ 0x20000000)  returns TRUE (0005ms, 0767ms total)
T2694 001:273 JLINK_ReadReg(R15 (PC))  returns 0x20000000 (0000ms, 0762ms total)
T2694 001:273 JLINK_ClrBPEx(BPHandle = 0x00000004)  returns 0x00 (0000ms, 0762ms total)
T2694 001:273 JLINK_ReadReg(R0)  returns 0x00000000 (0000ms, 0762ms total)
T2694 001:273 JLINK_WriteReg(R0, 0x08008000)  returns 0x00 (0000ms, 0762ms total)
T2694 001:273 JLINK_WriteReg(R1, 0x00004000)  returns 0x00 (0001ms, 0763ms total)
T2694 001:274 JLINK_WriteReg(R2, 0x000000FF)  returns 0x00 (0000ms, 0763ms total)
T2694 001:274 JLINK_WriteReg(R3, 0x00000000)  returns 0x00 (0000ms, 0763ms total)
T2694 001:274 JLINK_WriteReg(R4, 0x00000000)  returns 0x00 (0000ms, 0763ms total)
T2694 001:274 JLINK_WriteReg(R5, 0x00000000)  returns 0x00 (0000ms, 0763ms total)
T2694 001:274 JLINK_WriteReg(R6, 0x00000000)  returns 0x00 (0000ms, 0763ms total)
T2694 001:274 JLINK_WriteReg(R7, 0x00000000)  returns 0x00 (0000ms, 0763ms total)
T2694 001:274 JLINK_WriteReg(R8, 0x00000000)  returns 0x00 (0000ms, 0763ms total)
T2694 001:274 JLINK_WriteReg(R9, 0x20000184)  returns 0x00 (0000ms, 0763ms total)
T2694 001:274 JLINK_WriteReg(R10, 0x00000000)  returns 0x00 (0000ms, 0763ms total)
T2694 001:274 JLINK_WriteReg(R11, 0x00000000)  returns 0x00 (0000ms, 0763ms total)
T2694 001:274 JLINK_WriteReg(R12, 0x00000000)  returns 0x00 (0000ms, 0763ms total)
T2694 001:274 JLINK_WriteReg(R13 (SP), 0x20001000)  returns 0x00 (0000ms, 0763ms total)
T2694 001:274 JLINK_WriteReg(R14, 0x20000001)  returns 0x00 (0000ms, 0763ms total)
T2694 001:274 JLINK_WriteReg(R15 (PC), 0x20000020)  returns 0x00 (0000ms, 0763ms total)
T2694 001:274 JLINK_WriteReg(XPSR, 0x01000000)  returns 0x00 (0000ms, 0763ms total)
T2694 001:274 JLINK_WriteReg(MSP, 0x20001000)  returns 0x00 (0000ms, 0763ms total)
T2694 001:274 JLINK_WriteReg(PSP, 0x20001000)  returns 0x00 (0000ms, 0763ms total)
T2694 001:274 JLINK_WriteReg(CFBP, 0x00000000)  returns 0x00 (0000ms, 0763ms total)
T2694 001:274 JLINK_SetBPEx(Addr = 0x20000000, Type = 0xFFFFFFF2)  returns 0x00000005 (0000ms, 0763ms total)
T2694 001:274 JLINK_Go() (0003ms, 0766ms total)
T2694 001:277 JLINK_IsHalted()  returns FALSE (0001ms, 0767ms total)
T2694 001:285 JLINK_IsHalted()  returns FALSE (0001ms, 0767ms total)
T2694 001:287 JLINK_IsHalted()  returns FALSE (0001ms, 0767ms total)
T2694 001:289 JLINK_IsHalted()  returns FALSE (0001ms, 0767ms total)
T2694 001:293 JLINK_IsHalted() -- CPU_ReadMem(2 bytes @ 0x20000000)  returns TRUE (0005ms, 0771ms total)
T2694 001:298 JLINK_ReadReg(R15 (PC))  returns 0x20000000 (0000ms, 0766ms total)
T2694 001:298 JLINK_ClrBPEx(BPHandle = 0x00000005)  returns 0x00 (0000ms, 0766ms total)
T2694 001:298 JLINK_ReadReg(R0)  returns 0x00000000 (0001ms, 0767ms total)
T2694 001:299 JLINK_WriteReg(R0, 0x00000001)  returns 0x00 (0000ms, 0767ms total)
T2694 001:299 JLINK_WriteReg(R1, 0x00004000)  returns 0x00 (0000ms, 0767ms total)
T2694 001:299 JLINK_WriteReg(R2, 0x000000FF)  returns 0x00 (0000ms, 0767ms total)
T2694 001:299 JLINK_WriteReg(R3, 0x00000000)  returns 0x00 (0000ms, 0767ms total)
T2694 001:299 JLINK_WriteReg(R4, 0x00000000)  returns 0x00 (0000ms, 0767ms total)
T2694 001:299 JLINK_WriteReg(R5, 0x00000000)  returns 0x00 (0000ms, 0767ms total)
T2694 001:299 JLINK_WriteReg(R6, 0x00000000)  returns 0x00 (0000ms, 0767ms total)
T2694 001:299 JLINK_WriteReg(R7, 0x00000000)  returns 0x00 (0000ms, 0767ms total)
T2694 001:299 JLINK_WriteReg(R8, 0x00000000)  returns 0x00 (0000ms, 0767ms total)
T2694 001:299 JLINK_WriteReg(R9, 0x20000184)  returns 0x00 (0000ms, 0767ms total)
T2694 001:299 JLINK_WriteReg(R10, 0x00000000)  returns 0x00 (0000ms, 0767ms total)
T2694 001:299 JLINK_WriteReg(R11, 0x00000000)  returns 0x00 (0000ms, 0767ms total)
T2694 001:299 JLINK_WriteReg(R12, 0x00000000)  returns 0x00 (0000ms, 0767ms total)
T2694 001:299 JLINK_WriteReg(R13 (SP), 0x20001000)  returns 0x00 (0001ms, 0768ms total)
T2694 001:300 JLINK_WriteReg(R14, 0x20000001)  returns 0x00 (0000ms, 0768ms total)
T2694 001:300 JLINK_WriteReg(R15 (PC), 0x2000008C)  returns 0x00 (0000ms, 0768ms total)
T2694 001:300 JLINK_WriteReg(XPSR, 0x01000000)  returns 0x00 (0000ms, 0768ms total)
T2694 001:300 JLINK_WriteReg(MSP, 0x20001000)  returns 0x00 (0000ms, 0768ms total)
T2694 001:300 JLINK_WriteReg(PSP, 0x20001000)  returns 0x00 (0000ms, 0768ms total)
T2694 001:300 JLINK_WriteReg(CFBP, 0x00000000)  returns 0x00 (0000ms, 0768ms total)
T2694 001:300 JLINK_SetBPEx(Addr = 0x20000000, Type = 0xFFFFFFF2)  returns 0x00000006 (0000ms, 0768ms total)
T2694 001:300 JLINK_Go() (0003ms, 0771ms total)
T2694 001:303 JLINK_IsHalted() -- CPU_ReadMem(2 bytes @ 0x20000000)  returns TRUE (0005ms, 0776ms total)
T2694 001:308 JLINK_ReadReg(R15 (PC))  returns 0x20000000 (0000ms, 0771ms total)
T2694 001:308 JLINK_ClrBPEx(BPHandle = 0x00000006)  returns 0x00 (0000ms, 0771ms total)
T2694 001:308 JLINK_ReadReg(R0)  returns 0x00000000 (0000ms, 0771ms total)
T2694 001:366 JLINK_WriteMem(0x20000000, 0x0188 Bytes, ...) - Data: 00 BE 0A E0 0D 78 2D 06 68 40 08 24 40 00 00 D3 ... -- CPU_WriteMem(392 bytes @ 0x20000000)  returns 0x188 (0005ms, 0776ms total)
T2694 001:372 JLINK_WriteReg(R0, 0x08000000)  returns 0x00 (0000ms, 0776ms total)
T2694 001:372 JLINK_WriteReg(R1, 0x00B71B00)  returns 0x00 (0000ms, 0776ms total)
T2694 001:372 JLINK_WriteReg(R2, 0x00000002)  returns 0x00 (0000ms, 0776ms total)
T2694 001:372 JLINK_WriteReg(R3, 0x00000000)  returns 0x00 (0000ms, 0776ms total)
T2694 001:372 JLINK_WriteReg(R4, 0x00000000)  returns 0x00 (0000ms, 0776ms total)
T2694 001:372 JLINK_WriteReg(R5, 0x00000000)  returns 0x00 (0000ms, 0776ms total)
T2694 001:372 JLINK_WriteReg(R6, 0x00000000)  returns 0x00 (0000ms, 0776ms total)
T2694 001:372 JLINK_WriteReg(R7, 0x00000000)  returns 0x00 (0000ms, 0776ms total)
T2694 001:372 JLINK_WriteReg(R8, 0x00000000)  returns 0x00 (0000ms, 0776ms total)
T2694 001:372 JLINK_WriteReg(R9, 0x20000184)  returns 0x00 (0000ms, 0776ms total)
T2694 001:372 JLINK_WriteReg(R10, 0x00000000)  returns 0x00 (0000ms, 0776ms total)
T2694 001:372 JLINK_WriteReg(R11, 0x00000000)  returns 0x00 (0000ms, 0776ms total)
T2694 001:372 JLINK_WriteReg(R12, 0x00000000)  returns 0x00 (0000ms, 0776ms total)
T2694 001:372 JLINK_WriteReg(R13 (SP), 0x20001000)  returns 0x00 (0000ms, 0776ms total)
T2694 001:372 JLINK_WriteReg(R14, 0x20000001)  returns 0x00 (0000ms, 0776ms total)
T2694 001:372 JLINK_WriteReg(R15 (PC), 0x2000005E)  returns 0x00 (0000ms, 0776ms total)
T2694 001:372 JLINK_WriteReg(XPSR, 0x01000000)  returns 0x00 (0000ms, 0776ms total)
T2694 001:372 JLINK_WriteReg(MSP, 0x20001000)  returns 0x00 (0000ms, 0776ms total)
T2694 001:372 JLINK_WriteReg(PSP, 0x20001000)  returns 0x00 (0000ms, 0776ms total)
T2694 001:372 JLINK_WriteReg(CFBP, 0x00000000)  returns 0x00 (0000ms, 0776ms total)
T2694 001:372 JLINK_SetBPEx(Addr = 0x20000000, Type = 0xFFFFFFF2) -- CPU_ReadMem(2 bytes @ 0x20000000)  returns 0x00000007 (0001ms, 0777ms total)
T2694 001:374 JLINK_Go() -- CPU_WriteMem(2 bytes @ 0x20000000) (0003ms, 0781ms total)
T2694 001:377 JLINK_IsHalted() -- CPU_ReadMem(2 bytes @ 0x20000000)  returns TRUE (0005ms, 0786ms total)
T2694 001:382 JLINK_ReadReg(R15 (PC))  returns 0x20000000 (0000ms, 0781ms total)
T2694 001:382 JLINK_ClrBPEx(BPHandle = 0x00000007)  returns 0x00 (0000ms, 0781ms total)
T2694 001:382 JLINK_ReadReg(R0)  returns 0x00000000 (0000ms, 0781ms total)
T2694 001:383 JLINK_WriteMem(0x20000188, 0x0400 Bytes, ...) - Data: 70 07 00 20 35 4F 00 08 2D 03 00 08 2F 03 00 08 ... -- CPU_WriteMem(1024 bytes @ 0x20000188)  returns 0x400 (0013ms, 0794ms total)
T2694 001:396 JLINK_WriteReg(R0, 0x08000000)  returns 0x00 (0000ms, 0794ms total)
T2694 001:396 JLINK_WriteReg(R1, 0x00000400)  returns 0x00 (0001ms, 0795ms total)
T2694 001:397 JLINK_WriteReg(R2, 0x20000188)  returns 0x00 (0000ms, 0795ms total)
T2694 001:397 JLINK_WriteReg(R3, 0x00000000)  returns 0x00 (0000ms, 0795ms total)
T2694 001:397 JLINK_WriteReg(R4, 0x00000000)  returns 0x00 (0000ms, 0795ms total)
T2694 001:397 JLINK_WriteReg(R5, 0x00000000)  returns 0x00 (0000ms, 0795ms total)
T2694 001:397 JLINK_WriteReg(R6, 0x00000000)  returns 0x00 (0000ms, 0795ms total)
T2694 001:397 JLINK_WriteReg(R7, 0x00000000)  returns 0x00 (0000ms, 0795ms total)
T2694 001:397 JLINK_WriteReg(R8, 0x00000000)  returns 0x00 (0000ms, 0795ms total)
T2694 001:397 JLINK_WriteReg(R9, 0x20000184)  returns 0x00 (0000ms, 0795ms total)
T2694 001:397 JLINK_WriteReg(R10, 0x00000000)  returns 0x00 (0000ms, 0795ms total)
T2694 001:397 JLINK_WriteReg(R11, 0x00000000)  returns 0x00 (0000ms, 0795ms total)
T2694 001:397 JLINK_WriteReg(R12, 0x00000000)  returns 0x00 (0000ms, 0795ms total)
T2694 001:397 JLINK_WriteReg(R13 (SP), 0x20001000)  returns 0x00 (0000ms, 0795ms total)
T2694 001:397 JLINK_WriteReg(R14, 0x20000001)  returns 0x00 (0000ms, 0795ms total)
T2694 001:397 JLINK_WriteReg(R15 (PC), 0x20000112)  returns 0x00 (0000ms, 0795ms total)
T2694 001:397 JLINK_WriteReg(XPSR, 0x01000000)  returns 0x00 (0000ms, 0795ms total)
T2694 001:397 JLINK_WriteReg(MSP, 0x20001000)  returns 0x00 (0000ms, 0795ms total)
T2694 001:397 JLINK_WriteReg(PSP, 0x20001000)  returns 0x00 (0000ms, 0795ms total)
T2694 001:397 JLINK_WriteReg(CFBP, 0x00000000)  returns 0x00 (0000ms, 0795ms total)
T2694 001:397 JLINK_SetBPEx(Addr = 0x20000000, Type = 0xFFFFFFF2)  returns 0x00000008 (0000ms, 0795ms total)
T2694 001:397 JLINK_Go() (0003ms, 0798ms total)
T2694 001:400 JLINK_IsHalted()  returns FALSE (0001ms, 0799ms total)
T2694 001:412 JLINK_IsHalted() -- CPU_ReadMem(2 bytes @ 0x20000000)  returns TRUE (0005ms, 0803ms total)
T2694 001:417 JLINK_ReadReg(R15 (PC))  returns 0x20000000 (0000ms, 0798ms total)
T2694 001:417 JLINK_ClrBPEx(BPHandle = 0x00000008)  returns 0x00 (0000ms, 0798ms total)
T2694 001:417 JLINK_ReadReg(R0)  returns 0x00000000 (0001ms, 0799ms total)
T2694 001:419 JLINK_WriteMem(0x20000188, 0x0400 Bytes, ...) - Data: 1F 04 C1 F3 45 13 CA 0A E5 02 05 EB 43 15 15 44 ... -- CPU_WriteMem(1024 bytes @ 0x20000188)  returns 0x400 (0013ms, 0812ms total)
T2694 001:432 JLINK_WriteReg(R0, 0x08000400)  returns 0x00 (0000ms, 0812ms total)
T2694 001:432 JLINK_WriteReg(R1, 0x00000400)  returns 0x00 (0000ms, 0812ms total)
T2694 001:432 JLINK_WriteReg(R2, 0x20000188)  returns 0x00 (0000ms, 0812ms total)
T2694 001:432 JLINK_WriteReg(R3, 0x00000000)  returns 0x00 (0000ms, 0812ms total)
T2694 001:432 JLINK_WriteReg(R4, 0x00000000)  returns 0x00 (0000ms, 0812ms total)
T2694 001:432 JLINK_WriteReg(R5, 0x00000000)  returns 0x00 (0000ms, 0812ms total)
T2694 001:432 JLINK_WriteReg(R6, 0x00000000)  returns 0x00 (0000ms, 0812ms total)
T2694 001:432 JLINK_WriteReg(R7, 0x00000000)  returns 0x00 (0000ms, 0812ms total)
T2694 001:432 JLINK_WriteReg(R8, 0x00000000)  returns 0x00 (0000ms, 0812ms total)
T2694 001:432 JLINK_WriteReg(R9, 0x20000184)  returns 0x00 (0000ms, 0812ms total)
T2694 001:432 JLINK_WriteReg(R10, 0x00000000)  returns 0x00 (0000ms, 0812ms total)
T2694 001:432 JLINK_WriteReg(R11, 0x00000000)  returns 0x00 (0000ms, 0812ms total)
T2694 001:432 JLINK_WriteReg(R12, 0x00000000)  returns 0x00 (0000ms, 0812ms total)
T2694 001:432 JLINK_WriteReg(R13 (SP), 0x20001000)  returns 0x00 (0000ms, 0812ms total)
T2694 001:432 JLINK_WriteReg(R14, 0x20000001)  returns 0x00 (0000ms, 0812ms total)
T2694 001:432 JLINK_WriteReg(R15 (PC), 0x20000112)  returns 0x00 (0000ms, 0812ms total)
T2694 001:433 JLINK_WriteReg(XPSR, 0x01000000)  returns 0x00 (0000ms, 0813ms total)
T2694 001:433 JLINK_WriteReg(MSP, 0x20001000)  returns 0x00 (0000ms, 0813ms total)
T2694 001:433 JLINK_WriteReg(PSP, 0x20001000)  returns 0x00 (0000ms, 0813ms total)
T2694 001:433 JLINK_WriteReg(CFBP, 0x00000000)  returns 0x00 (0000ms, 0813ms total)
T2694 001:433 JLINK_SetBPEx(Addr = 0x20000000, Type = 0xFFFFFFF2)  returns 0x00000009 (0000ms, 0813ms total)
T2694 001:433 JLINK_Go() (0003ms, 0816ms total)
T2694 001:436 JLINK_IsHalted()  returns FALSE (0001ms, 0817ms total)
T2694 001:443 JLINK_IsHalted() -- CPU_ReadMem(2 bytes @ 0x20000000)  returns TRUE (0006ms, 0822ms total)
T2694 001:449 JLINK_ReadReg(R15 (PC))  returns 0x20000000 (0000ms, 0816ms total)
T2694 001:449 JLINK_ClrBPEx(BPHandle = 0x00000009)  returns 0x00 (0000ms, 0816ms total)
T2694 001:449 JLINK_ReadReg(R0)  returns 0x00000000 (0000ms, 0816ms total)
T2694 001:450 JLINK_WriteMem(0x20000188, 0x0400 Bytes, ...) - Data: 80 88 45 F2 10 51 88 42 02 D1 4F F4 58 59 01 E0 ... -- CPU_WriteMem(1024 bytes @ 0x20000188)  returns 0x400 (0013ms, 0829ms total)
T2694 001:463 JLINK_WriteReg(R0, 0x08000800)  returns 0x00 (0000ms, 0829ms total)
T2694 001:463 JLINK_WriteReg(R1, 0x00000400)  returns 0x00 (0000ms, 0829ms total)
T2694 001:463 JLINK_WriteReg(R2, 0x20000188)  returns 0x00 (0000ms, 0829ms total)
T2694 001:463 JLINK_WriteReg(R3, 0x00000000)  returns 0x00 (0000ms, 0829ms total)
T2694 001:463 JLINK_WriteReg(R4, 0x00000000)  returns 0x00 (0000ms, 0829ms total)
T2694 001:463 JLINK_WriteReg(R5, 0x00000000)  returns 0x00 (0000ms, 0829ms total)
T2694 001:463 JLINK_WriteReg(R6, 0x00000000)  returns 0x00 (0000ms, 0829ms total)
T2694 001:463 JLINK_WriteReg(R7, 0x00000000)  returns 0x00 (0000ms, 0829ms total)
T2694 001:464 JLINK_WriteReg(R8, 0x00000000)  returns 0x00 (0000ms, 0830ms total)
T2694 001:464 JLINK_WriteReg(R9, 0x20000184)  returns 0x00 (0000ms, 0830ms total)
T2694 001:464 JLINK_WriteReg(R10, 0x00000000)  returns 0x00 (0000ms, 0830ms total)
T2694 001:464 JLINK_WriteReg(R11, 0x00000000)  returns 0x00 (0000ms, 0830ms total)
T2694 001:464 JLINK_WriteReg(R12, 0x00000000)  returns 0x00 (0000ms, 0830ms total)
T2694 001:464 JLINK_WriteReg(R13 (SP), 0x20001000)  returns 0x00 (0000ms, 0830ms total)
T2694 001:464 JLINK_WriteReg(R14, 0x20000001)  returns 0x00 (0000ms, 0830ms total)
T2694 001:464 JLINK_WriteReg(R15 (PC), 0x20000112)  returns 0x00 (0000ms, 0830ms total)
T2694 001:464 JLINK_WriteReg(XPSR, 0x01000000)  returns 0x00 (0000ms, 0830ms total)
T2694 001:464 JLINK_WriteReg(MSP, 0x20001000)  returns 0x00 (0000ms, 0830ms total)
T2694 001:464 JLINK_WriteReg(PSP, 0x20001000)  returns 0x00 (0000ms, 0830ms total)
T2694 001:464 JLINK_WriteReg(CFBP, 0x00000000)  returns 0x00 (0000ms, 0830ms total)
T2694 001:464 JLINK_SetBPEx(Addr = 0x20000000, Type = 0xFFFFFFF2)  returns 0x0000000A (0000ms, 0830ms total)
T2694 001:464 JLINK_Go() (0003ms, 0833ms total)
T2694 001:467 JLINK_IsHalted()  returns FALSE (0001ms, 0834ms total)
T2694 001:479 JLINK_IsHalted() -- CPU_ReadMem(2 bytes @ 0x20000000)  returns TRUE (0005ms, 0838ms total)
T2694 001:484 JLINK_ReadReg(R15 (PC))  returns 0x20000000 (0000ms, 0833ms total)
T2694 001:484 JLINK_ClrBPEx(BPHandle = 0x0000000A)  returns 0x00 (0001ms, 0834ms total)
T2694 001:485 JLINK_ReadReg(R0)  returns 0x00000000 (0000ms, 0834ms total)
T2694 001:485 JLINK_WriteMem(0x20000188, 0x0400 Bytes, ...) - Data: 5A E0 01 20 E7 49 88 71 4F F4 A0 70 08 80 F0 20 ... -- CPU_WriteMem(1024 bytes @ 0x20000188)  returns 0x400 (0013ms, 0847ms total)
T2694 001:498 JLINK_WriteReg(R0, 0x08000C00)  returns 0x00 (0000ms, 0847ms total)
T2694 001:498 JLINK_WriteReg(R1, 0x00000400)  returns 0x00 (0000ms, 0847ms total)
T2694 001:498 JLINK_WriteReg(R2, 0x20000188)  returns 0x00 (0000ms, 0847ms total)
T2694 001:498 JLINK_WriteReg(R3, 0x00000000)  returns 0x00 (0000ms, 0847ms total)
T2694 001:498 JLINK_WriteReg(R4, 0x00000000)  returns 0x00 (0000ms, 0847ms total)
T2694 001:498 JLINK_WriteReg(R5, 0x00000000)  returns 0x00 (0000ms, 0847ms total)
T2694 001:498 JLINK_WriteReg(R6, 0x00000000)  returns 0x00 (0000ms, 0847ms total)
T2694 001:498 JLINK_WriteReg(R7, 0x00000000)  returns 0x00 (0000ms, 0847ms total)
T2694 001:498 JLINK_WriteReg(R8, 0x00000000)  returns 0x00 (0000ms, 0847ms total)
T2694 001:499 JLINK_WriteReg(R9, 0x20000184)  returns 0x00 (0000ms, 0848ms total)
T2694 001:499 JLINK_WriteReg(R10, 0x00000000)  returns 0x00 (0000ms, 0848ms total)
T2694 001:499 JLINK_WriteReg(R11, 0x00000000)  returns 0x00 (0000ms, 0848ms total)
T2694 001:499 JLINK_WriteReg(R12, 0x00000000)  returns 0x00 (0000ms, 0848ms total)
T2694 001:499 JLINK_WriteReg(R13 (SP), 0x20001000)  returns 0x00 (0000ms, 0848ms total)
T2694 001:499 JLINK_WriteReg(R14, 0x20000001)  returns 0x00 (0000ms, 0848ms total)
T2694 001:499 JLINK_WriteReg(R15 (PC), 0x20000112)  returns 0x00 (0000ms, 0848ms total)
T2694 001:499 JLINK_WriteReg(XPSR, 0x01000000)  returns 0x00 (0000ms, 0848ms total)
T2694 001:499 JLINK_WriteReg(MSP, 0x20001000)  returns 0x00 (0000ms, 0848ms total)
T2694 001:499 JLINK_WriteReg(PSP, 0x20001000)  returns 0x00 (0000ms, 0848ms total)
T2694 001:499 JLINK_WriteReg(CFBP, 0x00000000)  returns 0x00 (0000ms, 0848ms total)
T2694 001:499 JLINK_SetBPEx(Addr = 0x20000000, Type = 0xFFFFFFF2)  returns 0x0000000B (0000ms, 0848ms total)
T2694 001:499 JLINK_Go() (0003ms, 0851ms total)
T2694 001:502 JLINK_IsHalted()  returns FALSE (0001ms, 0852ms total)
T2694 001:512 JLINK_IsHalted() -- CPU_ReadMem(2 bytes @ 0x20000000)  returns TRUE (0005ms, 0856ms total)
T2694 001:517 JLINK_ReadReg(R15 (PC))  returns 0x20000000 (0000ms, 0851ms total)
T2694 001:517 JLINK_ClrBPEx(BPHandle = 0x0000000B)  returns 0x00 (0000ms, 0851ms total)
T2694 001:517 JLINK_ReadReg(R0)  returns 0x00000000 (0000ms, 0851ms total)
T2694 001:518 JLINK_WriteMem(0x20000188, 0x0400 Bytes, ...) - Data: 0F 21 EC 48 04 F0 23 FD 0F 20 08 90 00 20 09 90 ... -- CPU_WriteMem(1024 bytes @ 0x20000188)  returns 0x400 (0013ms, 0864ms total)
T2694 001:531 JLINK_WriteReg(R0, 0x08001000)  returns 0x00 (0000ms, 0864ms total)
T2694 001:531 JLINK_WriteReg(R1, 0x00000400)  returns 0x00 (0000ms, 0864ms total)
T2694 001:531 JLINK_WriteReg(R2, 0x20000188)  returns 0x00 (0000ms, 0864ms total)
T2694 001:531 JLINK_WriteReg(R3, 0x00000000)  returns 0x00 (0000ms, 0864ms total)
T2694 001:531 JLINK_WriteReg(R4, 0x00000000)  returns 0x00 (0000ms, 0864ms total)
T2694 001:531 JLINK_WriteReg(R5, 0x00000000)  returns 0x00 (0000ms, 0864ms total)
T2694 001:531 JLINK_WriteReg(R6, 0x00000000)  returns 0x00 (0000ms, 0864ms total)
T2694 001:531 JLINK_WriteReg(R7, 0x00000000)  returns 0x00 (0000ms, 0864ms total)
T2694 001:531 JLINK_WriteReg(R8, 0x00000000)  returns 0x00 (0000ms, 0864ms total)
T2694 001:531 JLINK_WriteReg(R9, 0x20000184)  returns 0x00 (0000ms, 0864ms total)
T2694 001:531 JLINK_WriteReg(R10, 0x00000000)  returns 0x00 (0000ms, 0864ms total)
T2694 001:531 JLINK_WriteReg(R11, 0x00000000)  returns 0x00 (0000ms, 0864ms total)
T2694 001:531 JLINK_WriteReg(R12, 0x00000000)  returns 0x00 (0000ms, 0864ms total)
T2694 001:531 JLINK_WriteReg(R13 (SP), 0x20001000)  returns 0x00 (0000ms, 0864ms total)
T2694 001:531 JLINK_WriteReg(R14, 0x20000001)  returns 0x00 (0000ms, 0864ms total)
T2694 001:531 JLINK_WriteReg(R15 (PC), 0x20000112)  returns 0x00 (0001ms, 0865ms total)
T2694 001:532 JLINK_WriteReg(XPSR, 0x01000000)  returns 0x00 (0000ms, 0865ms total)
T2694 001:532 JLINK_WriteReg(MSP, 0x20001000)  returns 0x00 (0000ms, 0865ms total)
T2694 001:532 JLINK_WriteReg(PSP, 0x20001000)  returns 0x00 (0000ms, 0865ms total)
T2694 001:532 JLINK_WriteReg(CFBP, 0x00000000)  returns 0x00 (0000ms, 0865ms total)
T2694 001:532 JLINK_SetBPEx(Addr = 0x20000000, Type = 0xFFFFFFF2)  returns 0x0000000C (0000ms, 0865ms total)
T2694 001:532 JLINK_Go() (0003ms, 0868ms total)
T2694 001:535 JLINK_IsHalted()  returns FALSE (0001ms, 0869ms total)
T2694 001:541 JLINK_IsHalted() -- CPU_ReadMem(2 bytes @ 0x20000000)  returns TRUE (0005ms, 0873ms total)
T2694 001:546 JLINK_ReadReg(R15 (PC))  returns 0x20000000 (0000ms, 0868ms total)
T2694 001:546 JLINK_ClrBPEx(BPHandle = 0x0000000C)  returns 0x00 (0000ms, 0868ms total)
T2694 001:546 JLINK_ReadReg(R0)  returns 0x00000000 (0000ms, 0868ms total)
T2694 001:547 JLINK_WriteMem(0x20000188, 0x0400 Bytes, ...) - Data: 2A 20 FE F7 CA FF 28 20 FE F7 C7 FF 08 20 FE F7 ... -- CPU_WriteMem(1024 bytes @ 0x20000188)  returns 0x400 (0013ms, 0881ms total)
T2694 001:560 JLINK_WriteReg(R0, 0x08001400)  returns 0x00 (0000ms, 0881ms total)
T2694 001:560 JLINK_WriteReg(R1, 0x00000400)  returns 0x00 (0000ms, 0881ms total)
T2694 001:560 JLINK_WriteReg(R2, 0x20000188)  returns 0x00 (0000ms, 0881ms total)
T2694 001:560 JLINK_WriteReg(R3, 0x00000000)  returns 0x00 (0000ms, 0881ms total)
T2694 001:560 JLINK_WriteReg(R4, 0x00000000)  returns 0x00 (0000ms, 0881ms total)
T2694 001:560 JLINK_WriteReg(R5, 0x00000000)  returns 0x00 (0000ms, 0881ms total)
T2694 001:560 JLINK_WriteReg(R6, 0x00000000)  returns 0x00 (0000ms, 0881ms total)
T2694 001:560 JLINK_WriteReg(R7, 0x00000000)  returns 0x00 (0000ms, 0881ms total)
T2694 001:560 JLINK_WriteReg(R8, 0x00000000)  returns 0x00 (0000ms, 0881ms total)
T2694 001:560 JLINK_WriteReg(R9, 0x20000184)  returns 0x00 (0000ms, 0881ms total)
T2694 001:560 JLINK_WriteReg(R10, 0x00000000)  returns 0x00 (0000ms, 0881ms total)
T2694 001:560 JLINK_WriteReg(R11, 0x00000000)  returns 0x00 (0000ms, 0881ms total)
T2694 001:560 JLINK_WriteReg(R12, 0x00000000)  returns 0x00 (0000ms, 0881ms total)
T2694 001:560 JLINK_WriteReg(R13 (SP), 0x20001000)  returns 0x00 (0000ms, 0881ms total)
T2694 001:560 JLINK_WriteReg(R14, 0x20000001)  returns 0x00 (0001ms, 0882ms total)
T2694 001:561 JLINK_WriteReg(R15 (PC), 0x20000112)  returns 0x00 (0000ms, 0882ms total)
T2694 001:561 JLINK_WriteReg(XPSR, 0x01000000)  returns 0x00 (0000ms, 0882ms total)
T2694 001:561 JLINK_WriteReg(MSP, 0x20001000)  returns 0x00 (0000ms, 0882ms total)
T2694 001:561 JLINK_WriteReg(PSP, 0x20001000)  returns 0x00 (0000ms, 0882ms total)
T2694 001:561 JLINK_WriteReg(CFBP, 0x00000000)  returns 0x00 (0000ms, 0882ms total)
T2694 001:561 JLINK_SetBPEx(Addr = 0x20000000, Type = 0xFFFFFFF2)  returns 0x0000000D (0000ms, 0882ms total)
T2694 001:561 JLINK_Go() (0003ms, 0885ms total)
T2694 001:564 JLINK_IsHalted()  returns FALSE (0002ms, 0887ms total)
T2694 001:568 JLINK_IsHalted() -- CPU_ReadMem(2 bytes @ 0x20000000)  returns TRUE (0005ms, 0890ms total)
T2694 001:573 JLINK_ReadReg(R15 (PC))  returns 0x20000000 (0000ms, 0885ms total)
T2694 001:573 JLINK_ClrBPEx(BPHandle = 0x0000000D)  returns 0x00 (0000ms, 0885ms total)
T2694 001:573 JLINK_ReadReg(R0)  returns 0x00000000 (0000ms, 0885ms total)
T2694 001:575 JLINK_WriteMem(0x20000188, 0x0400 Bytes, ...) - Data: CC FD 00 20 FE F7 C9 FD 00 20 FE F7 C6 FD 00 20 ... -- CPU_WriteMem(1024 bytes @ 0x20000188)  returns 0x400 (0013ms, 0898ms total)
T2694 001:588 JLINK_WriteReg(R0, 0x08001800)  returns 0x00 (0000ms, 0898ms total)
T2694 001:588 JLINK_WriteReg(R1, 0x00000400)  returns 0x00 (0000ms, 0898ms total)
T2694 001:588 JLINK_WriteReg(R2, 0x20000188)  returns 0x00 (0000ms, 0898ms total)
T2694 001:588 JLINK_WriteReg(R3, 0x00000000)  returns 0x00 (0000ms, 0898ms total)
T2694 001:588 JLINK_WriteReg(R4, 0x00000000)  returns 0x00 (0000ms, 0898ms total)
T2694 001:588 JLINK_WriteReg(R5, 0x00000000)  returns 0x00 (0000ms, 0898ms total)
T2694 001:588 JLINK_WriteReg(R6, 0x00000000)  returns 0x00 (0000ms, 0898ms total)
T2694 001:588 JLINK_WriteReg(R7, 0x00000000)  returns 0x00 (0000ms, 0898ms total)
T2694 001:588 JLINK_WriteReg(R8, 0x00000000)  returns 0x00 (0000ms, 0898ms total)
T2694 001:588 JLINK_WriteReg(R9, 0x20000184)  returns 0x00 (0000ms, 0898ms total)
T2694 001:588 JLINK_WriteReg(R10, 0x00000000)  returns 0x00 (0000ms, 0898ms total)
T2694 001:588 JLINK_WriteReg(R11, 0x00000000)  returns 0x00 (0000ms, 0898ms total)
T2694 001:588 JLINK_WriteReg(R12, 0x00000000)  returns 0x00 (0000ms, 0898ms total)
T2694 001:588 JLINK_WriteReg(R13 (SP), 0x20001000)  returns 0x00 (0000ms, 0898ms total)
T2694 001:588 JLINK_WriteReg(R14, 0x20000001)  returns 0x00 (0000ms, 0898ms total)
T2694 001:588 JLINK_WriteReg(R15 (PC), 0x20000112)  returns 0x00 (0000ms, 0898ms total)
T2694 001:588 JLINK_WriteReg(XPSR, 0x01000000)  returns 0x00 (0000ms, 0898ms total)
T2694 001:588 JLINK_WriteReg(MSP, 0x20001000)  returns 0x00 (0001ms, 0899ms total)
T2694 001:589 JLINK_WriteReg(PSP, 0x20001000)  returns 0x00 (0000ms, 0899ms total)
T2694 001:589 JLINK_WriteReg(CFBP, 0x00000000)  returns 0x00 (0000ms, 0899ms total)
T2694 001:589 JLINK_SetBPEx(Addr = 0x20000000, Type = 0xFFFFFFF2)  returns 0x0000000E (0000ms, 0899ms total)
T2694 001:589 JLINK_Go() (0003ms, 0902ms total)
T2694 001:592 JLINK_IsHalted()  returns FALSE (0001ms, 0903ms total)
T2694 001:605 JLINK_IsHalted() -- CPU_ReadMem(2 bytes @ 0x20000000)  returns TRUE (0005ms, 0907ms total)
T2694 001:610 JLINK_ReadReg(R15 (PC))  returns 0x20000000 (0000ms, 0902ms total)
T2694 001:610 JLINK_ClrBPEx(BPHandle = 0x0000000E)  returns 0x00 (0000ms, 0902ms total)
T2694 001:610 JLINK_ReadReg(R0)  returns 0x00000000 (0000ms, 0902ms total)
T2694 001:611 JLINK_WriteMem(0x20000188, 0x0400 Bytes, ...) - Data: FE F7 CB FB 00 20 FE F7 C8 FB C7 20 FE F7 BC FB ... -- CPU_WriteMem(1024 bytes @ 0x20000188)  returns 0x400 (0013ms, 0915ms total)
T2694 001:624 JLINK_WriteReg(R0, 0x08001C00)  returns 0x00 (0000ms, 0915ms total)
T2694 001:624 JLINK_WriteReg(R1, 0x00000400)  returns 0x00 (0000ms, 0915ms total)
T2694 001:624 JLINK_WriteReg(R2, 0x20000188)  returns 0x00 (0000ms, 0915ms total)
T2694 001:624 JLINK_WriteReg(R3, 0x00000000)  returns 0x00 (0000ms, 0915ms total)
T2694 001:624 JLINK_WriteReg(R4, 0x00000000)  returns 0x00 (0000ms, 0915ms total)
T2694 001:624 JLINK_WriteReg(R5, 0x00000000)  returns 0x00 (0000ms, 0915ms total)
T2694 001:624 JLINK_WriteReg(R6, 0x00000000)  returns 0x00 (0000ms, 0915ms total)
T2694 001:624 JLINK_WriteReg(R7, 0x00000000)  returns 0x00 (0000ms, 0915ms total)
T2694 001:624 JLINK_WriteReg(R8, 0x00000000)  returns 0x00 (0000ms, 0915ms total)
T2694 001:624 JLINK_WriteReg(R9, 0x20000184)  returns 0x00 (0000ms, 0915ms total)
T2694 001:624 JLINK_WriteReg(R10, 0x00000000)  returns 0x00 (0000ms, 0915ms total)
T2694 001:624 JLINK_WriteReg(R11, 0x00000000)  returns 0x00 (0000ms, 0915ms total)
T2694 001:624 JLINK_WriteReg(R12, 0x00000000)  returns 0x00 (0000ms, 0915ms total)
T2694 001:624 JLINK_WriteReg(R13 (SP), 0x20001000)  returns 0x00 (0000ms, 0915ms total)
T2694 001:624 JLINK_WriteReg(R14, 0x20000001)  returns 0x00 (0001ms, 0916ms total)
T2694 001:625 JLINK_WriteReg(R15 (PC), 0x20000112)  returns 0x00 (0000ms, 0916ms total)
T2694 001:625 JLINK_WriteReg(XPSR, 0x01000000)  returns 0x00 (0000ms, 0916ms total)
T2694 001:625 JLINK_WriteReg(MSP, 0x20001000)  returns 0x00 (0000ms, 0916ms total)
T2694 001:625 JLINK_WriteReg(PSP, 0x20001000)  returns 0x00 (0000ms, 0916ms total)
T2694 001:625 JLINK_WriteReg(CFBP, 0x00000000)  returns 0x00 (0000ms, 0916ms total)
T2694 001:625 JLINK_SetBPEx(Addr = 0x20000000, Type = 0xFFFFFFF2)  returns 0x0000000F (0000ms, 0916ms total)
T2694 001:625 JLINK_Go() (0003ms, 0919ms total)
T2694 001:628 JLINK_IsHalted()  returns FALSE (0001ms, 0920ms total)
T2694 001:637 JLINK_IsHalted() -- CPU_ReadMem(2 bytes @ 0x20000000)  returns TRUE (0005ms, 0924ms total)
T2694 001:642 JLINK_ReadReg(R15 (PC))  returns 0x20000000 (0000ms, 0919ms total)
T2694 001:642 JLINK_ClrBPEx(BPHandle = 0x0000000F)  returns 0x00 (0001ms, 0920ms total)
T2694 001:643 JLINK_ReadReg(R0)  returns 0x00000000 (0000ms, 0920ms total)
